"FID","0143"
"FID=SEL-351-5-R515-V0-Z105104-D20130620","090A"
"MONTH","DAY","YEAR","HOUR","MIN","SEC","MSEC","USEC","TSOK","0E1B"
9,21,2022,6,48,48,731,304,1,"055F"
"REF_NUM","FREQ","SAM/CYC_A","SAM/CYC_D","NUM_OF_CYC","EVENT","LOCATION","SHOT","TARGETS","IA","IB","IC","IN","IG","3I2","1CD6"
11171,59.98,4,4,16,"CAG T",$$$$$$$, ,"INST 50 ",672,544,392,1528,1528,368,"0E4C"
"IA","IB","IC","IN","IG","VA(kV)","VB(kV)","VC(kV)","VS(kV)","VDC","DT","TRIG","50A1 50B1 50C1 50A2 50B2 50C2 50A3 50B3 50C3 50A4 50B4 50C4 50AB1 50BC1 50CA1 50AB2 50BC2 50CA2 50AB3 50BC3 50CA3 50AB4 50BC4 50CA4 50A 50B 50C 51A 51AT 51AR 51B 51BT 51BR 51C 51CT 51CR 51P 51PT 51PR 51N 51NT 51NR 51G 51GT 51GR 51Q 51QT 51QR 50P1 50P2 50P3 50P4 50N1 50N2 50N3 50N4 67P1 67P2 67P3 67P4 67N1 67N2 67N3 67N4 67P1T 67P2T 67P3T 67P4T 67N1T 67N2T 67N3T 67N4T 50G1 50G2 50G3 50G4 50Q1 50Q2 50Q3 50Q4 67G1 67G2 67G3 67G4 67Q1 67Q2 67Q3 67Q4 67G1T 67G2T 67G3T 67G4T 67Q1T 67Q2T 67Q3T 67Q4T 50P5 50P6 50N5 50N6 50G5 50G6 50Q5 50Q6 50QF 50QR 50GF 50GR 32VE 32QGE 32IE 32QE F32P R32P F32Q R32Q F32QG R32QG F32V R32V F32I R32I 32PF 32PR 32QF 32QR 32GF 32GR 27A1 27B1 27C1 27A2 27B2 27C2 59A1 59B1 59C1 59A2 59B2 59C2 27AB 27BC 27CA 59AB 59BC 59CA 59N1 59N2 59Q 59V1 27S 59S1 59S2 59VP 59VS SF 25A1 25A2 3P27 3P59 81D1 81D2 81D3 81D4 81D5 81D6 27B81 50L 81D1T 81D2T 81D3T 81D4T 81D5T 81D6T VPOLV LOP SFAST SSLOW IN106 IN105 IN104 IN103 IN102 IN101 LB1 LB2 LB3 LB4 LB5 LB6 LB7 LB8 LB9 LB10 LB11 LB12 LB13 LB14 LB15 LB16 RB1 RB2 RB3 RB4 RB5 RB6 RB7 RB8 RB9 RB10 RB11 RB12 RB13 RB14 RB15 RB16 LT1 LT2 LT3 LT4 LT5 LT6 LT7 LT8 LT9 LT10 LT11 LT12 LT13 LT14 LT15 LT16 SV1 SV2 SV3 SV4 SV1T SV2T SV3T SV4T SV5 SV6 SV7 SV8 SV5T SV6T SV7T SV8T SV9 SV10 SV11 SV12 SV9T SV10T SV11T SV12T SV13 SV14 SV15 SV16 SV13T SV14T SV15T SV16T 79RS 79CY 79LO SH0 SH1 SH2 SH3 SH4 CLOSE CF RCSF OPTMN RSTMN FSA FSB FSC BCW 50P32 * 59VA TRGTR 52A * * SG1 SG2 SG3 SG4 SG5 SG6 ZLOUT ZLIN ZLOAD BCWA BCWB BCWC * 51G2 51G2T 51G2R ALARM OUT107 OUT106 OUT105 OUT104 OUT103 OUT102 OUT101 3PO SOTFE Z3RB KEY EKEY ECTT WFC PT PTRX2 PTRX PTRX1 UBB1 UBB2 UBB Z3XT DSTRT NSTRT STOP BTX TRIP OC CC DCHI DCLO 67P2S 67N2S 67G2S 67Q2S PDEM NDEM GDEM QDEM OUT201 OUT202 OUT203 OUT204 OUT205 OUT206 OUT207 OUT208 OUT209 OUT210 OUT211 OUT212 * * * * IN208 IN207 IN206 IN205 IN204 IN203 IN202 IN201 * * * * * * * * * * * * * * * * * * * * * * * * * * * * * * * * * * * * * * * * * * * * * * * * * * * * * * * * * * * * * * * * * * * * * * * * * * * * * * TSOK TIRIG * * * * * * * * 27AB2 27BC2 27CA2 59AB2 59BC2 59CA2 59Q2 3V0 V1GOOD * * V0GAIN INMET ICMET IBMET IAMET * * * * * * 32NF 32NR PMDOK * * * * * * * DELTA WYE SINGLE TESTDB * * * FREQOK DST DSTP LPSEC LPSECP TQUAL4 TQUAL3 TQUAL2 TQUAL1 RSTTRGT RST_MML RST_ENE RST_HIS RST_BK RST_PDM RST_DEM RST_HAL * * * PMTRIG TREA4 TREA3 TREA2 TREA1 * LINK5A LINK5B LNKFAIL P5ASEL P5BSEL TSNTPP TSNTPB RB17 RB18 RB19 RB20 RB21 RB22 RB23 RB24 RB25 RB26 RB27 RB28 RB29 RB30 RB31 RB32 LV1 LV2 LV3 LV4 LV5 LV6 LV7 LV8 LV9 LV10 LV11 LV12 LV13 LV14 LV15 LV16 LV17 LV18 LV19 LV20 LV21 LV22 LV23 LV24 LV25 LV26 LV27 LV28 LV29 LV30 LV31 LV32 * * * * * * * * * * * * * * * * * * * * * * * * * * * * * * * * VB001 VB002 VB003 VB004 VB005 VB006 VB007 VB008 VB009 VB010 VB011 VB012 VB013 VB014 VB015 VB016 VB017 VB018 VB019 VB020 VB021 VB022 VB023 VB024 VB025 VB026 VB027 VB028 VB029 VB030 VB031 VB032 VB033 VB034 VB035 VB036 VB037 VB038 VB039 VB040 VB041 VB042 VB043 VB044 VB045 VB046 VB047 VB048 VB049 VB050 VB051 VB052 VB053 VB054 VB055 VB056 VB057 VB058 VB059 VB060 VB061 VB062 VB063 VB064 VB065 VB066 VB067 VB068 VB069 VB070 VB071 VB072 VB073 VB074 VB075 VB076 VB077 VB078 VB079 VB080 VB081 VB082 VB083 VB084 VB085 VB086 VB087 VB088 VB089 VB090 VB091 VB092 VB093 VB094 VB095 VB096 VB097 VB098 VB099 VB100 VB101 VB102 VB103 VB104 VB105 VB106 VB107 VB108 VB109 VB110 VB111 VB112 VB113 VB114 VB115 VB116 VB117 VB118 VB119 VB120 VB121 VB122 VB123 VB124 VB125 VB126 VB127 VB128 SALARM ACCESS ALRMOUT * HALARMA HALARMP HALARML HALARM * * PASNVAL ACCESSP GRPSW SETCHG CHGPASS BADPASS DD LOPRST LOPBLK LOP2 LOP3 * * * ESTRA ESTRB ESTRC ESCLA ESCLB ESCLC ESOAL MSOAL * * HBL2T HBL2AT HBL2BT HBL2CT MSTR MSCL * * * 81R4T 81R3T 81R2T 81R1T 81RT * 50BFA 50BFB 50BFC 50BFT RT BFT BFTRIP * * * * * * * RSTDNPE * * * * * * * * ","634B"
-118.375,-144.375,226.125,-24.500,-36.625,18.080,91.100,-112.520,-0.640,135,4168, ,"000000000208000000000000000000000000000001020600000000000000000000000004800000000000000200420000000000000000000300009F0000410F0000680000E40000000000000000000000000000000000000000000000200044000000000000","36C2"
184.125,-180.250,-50.875,-14.875,-47.000,-143.080,83.860,57.740,-0.640,135,4169, ,"000000000208000000000000000000000000000001020600000000000000000000000004800000000000000200420000000000000000000300009F0000410F0000680000E40000000000000000000000000000000000000000000000200044000000000000","36AA"
107.625,122.750,-284.000,-7.750,-53.625,-18.760,-92.380,111.740,-0.600,135,4168, ,"000000000208000000000000000000000000000001020600000000000000000000000004800000000000000200420000000000000000000300009F0000410F0000680000E40000000000000000000000000000000000000000000000200044000000000000","3699"
-197.375,155.000,-11.875,-4.875,-54.250,140.940,-85.520,-59.640,-0.620,135,4168, ,"000000000208000000000000000000000000000001020600000000000000000000000004800000000000000200420000000000000000000300009F0000410F0000680000E40000000000000000000000000000000000000000000000200044000000000000","36A9"
-119.500,-145.625,224.125,-20.250,-41.000,18.080,91.300,-112.480,-0.600,135,4169, ,"000000000208000000000000000000000000000001020600000000000000000000000004800000000000000200420000000000000000000300009F0000410F0000680000E40000000000000000000000000000000000000000000000200044000000000000","36A7"
185.750,-179.625,-50.000,-18.125,-43.875,-142.860,83.780,57.920,-0.640,135,4168, ,"000000000208000000000000000000000000000001020600000000000000000000000004800000000000000200420000000000000000000300009F0000410F0000680000E40000000000000000000000000000000000000000000000200044000000000000","36B6"
107.250,121.625,-285.250,-5.250,-56.375,-18.800,-92.260,111.620,-0.660,135,4168, ,"000000000208000000000000000000000000000001020600000000000000000000000004800000000000000200420000000000000000000300009F0000410F0000680000E40000000000000000000000000000000000000000000000200044000000000000","3694"
-197.250,155.125,-11.125,-6.250,-53.250,141.180,-85.420,-59.520,-0.560,135,4168, ,"000000000208000000000000000000000000000001020600000000000000000000000004800000000000000200420000000000000000000300009F0000410F0000680000E40000000000000000000000000000000000000000000000200044000000000000","368D"
-119.375,-145.875,223.875,-19.375,-41.375,17.960,91.560,-112.400,-0.620,135,4168, ,"000000000208000000000000000000000000000001020600000000000000000000000004800000000000000200420000000000000000000300009F0000410F0000680000E40000000000000000000000000000000000000000000000200044000000000000","36E9"
185.625,-178.750,-49.500,-20.000,-42.625,-142.040,84.580,58.640,-0.640,135,4168, ,"000000000208000000000000000000000000000001020600000000000000000000000004800000000000000200420000000000000000000300009F0000410F0000680000E40000000000000000000000000000000000000000000000200044000000000000","36A0"
106.875,121.625,-285.375,-4.000,-56.875,-19.140,-92.800,111.140,-0.620,135,4168, ,"000000000208000000000000000000000000000001020600000000000000000000000004800000000000000200420000000000000000000300009F0000410F0000680000E40000000000000000000000000000000000000000000000200044000000000000","369C"
-197.375,155.375,-10.875,-6.375,-52.875,141.540,-85.200,-59.200,-0.600,135,4167, ,"000000000208000000000000000000000000000001020600000000000000000000000004800000000000000200420000000000000000000300009F0000410F0000680000E40000000000000000000000000000000000000000000000200044000000000000","36AC"
-119.375,-145.875,224.125,-18.875,-41.125,17.500,91.240,-112.920,-0.600,135,4168, ,"000000000208000000000000000000000000000001020600000000000000000000000004800000000000000200420000000000000000000300009F0000410F0000680000E40000000000000000000000000000000000000000000000200044000000000000","36D1"
185.500,-179.375,-50.000,-18.625,-43.875,-142.480,84.160,58.100,-0.640,135,4168, ,"000000000208000000000000000000000000000001020600000000000000000000000004800000000000000200420000000000000000000300009F0000410F0000680000E40000000000000000000000000000000000000000000000200044000000000000","36A4"
107.625,121.125,-284.750,-5.125,-56.000,-18.820,-92.500,111.260,-0.620,135,4168, ,"000000000208000000000000000000000000000001020600000000000000000000000004800000000000000200420000000000000000000300009F0000410F0000680000E40000000000000000000000000000000000000000000000200044000000000000","3686"
-197.125,154.875,-11.125,-5.875,-53.375,141.380,-85.520,-59.260,-0.580,135,4167, ,"000000000208000000000000000000000000000001020600000000000000000000000004800000000000000200420000000000000000000300009F0000410F0000680000E40000000000000000000000000000000000000000000000200044000000000000","36B2"
-119.500,-146.250,224.000,-19.375,-41.750,17.620,91.340,-112.640,-0.600,135,4168, ,"000000000208000000000000000000000000000001020600000000000000000000000004800000000000000200420000000000000000000300009F0000410F0000680000E40000000000000000000000000000000000000000000000200044000000000000","36B6"
185.500,-179.625,-49.875,-17.875,-44.000,-142.700,84.200,58.040,-0.680,135,4168, ,"000000000208000000000000000000000000000001020600000000000000000000000004800000000000000200420000000000000000000300009F0000410F0000680000E40000000000000000000000000000000000000000000000200044000000000000","36AE"
107.375,121.875,-285.250,-5.125,-56.000,-18.760,-92.500,111.400,-0.640,135,4167, ,"000000000208000000000000000000000000000001020600000000000000000000000004800000000000000200420000000000000000000300009F0000410F0000680000E40000000000000000000000000000000000000000000000200044000000000000","3690"
-197.125,157.000,-11.000,-9.250,-51.125,141.820,-84.580,-58.880,-0.620,135,4168, ,"000000000208000000000000000000000000000001020600000000000000000000000004800000000000000200420000000000000000000300009F0000410F0000680000E40000000000000000000000000000000000000000000000200044000000000000","368E"
-120.250,-146.375,223.625,-18.375,-43.000,16.820,90.760,-113.640,-0.640,135,4168, ,"000000000208000000000000000000000000000001020600000000000000000000000004800000000000000200420000000000000000000300009F0000410F0000680000E40000000000000000000000000000000000000000000000200044000000000000","36C4"
185.375,-179.625,-49.750,-18.625,-44.000,-142.560,84.080,58.220,-0.660,135,4168, ,"000000000208000000000000000000000000000001020600000000000000000000000004800000000000000200420000000000000000000300009F0000410F0000680000E40000000000000000000000000000000000000000000000200044000000000000","36B2"
107.625,121.375,-285.250,-5.500,-56.250,-19.440,-92.720,111.180,-0.620,135,4167, ,"000000000208000000000000000000000000000001020600000000000000000000000004800000000000000200420000000000000000000300009F0000410F0000680000E40000000000000000000000000000000000000000000000200044000000000000","3690"
-197.125,155.125,-12.000,-5.500,-54.000,141.560,-85.360,-59.260,-0.600,135,4168, ,"000000000208000000000000000000000000000001020600000000000000000000000004800000000000000200420000000000000000000300009F0000410F0000680000E40000000000000000000000000000000000000000000000200044000000000000","367F"
-119.750,-146.000,224.250,-19.375,-41.500,17.840,90.960,-112.860,-0.600,135,4168, ,"000000000208000000000000000000000000000001020600000000000000000000000004800000000000000200420000000000000000000300009F0000410F0000680000E40000000000000000000000000000000000000000000000200044000000000000","36C5"
185.250,-179.750,-49.500,-18.375,-44.000,-142.520,84.060,58.120,-0.640,135,4168, ,"000000000208000000000000000000000000000001020600000000000000000000000004800000000000000200420000000000000000000300009F0000410F0000680000E40000000000000000000000000000000000000000000000200044000000000000","369B"
107.625,122.125,-285.250,-5.500,-55.500,-19.040,-92.220,111.540,-0.600,135,4167, ,"000000000208000000000000000000000000000001020600000000000000000000000004800000000000000200420000000000000000000300009F0000410F0000680000E40000000000000000000000000000000000000000000000200044000000000000","367C"
-197.000,155.375,-11.750,-5.625,-53.375,141.320,-85.400,-59.380,-0.560,135,4168, ,"000000000208000000000000000000000000000001020600000000000000000000000004800000000000000200420000000000000000000300009F0000410F0000680000E40000000000000000000000000000000000000000000000200044000000000000","369C"
-120.625,-146.250,224.625,-19.250,-42.250,18.060,91.160,-112.760,-0.560,135,4168, ,"000000000208000000000000000000000000000001020600000000000000000000000004800000000000000200420000000000000000000300009F0000410F0000680000E40000000000000000000000000000000000000000000000200044000000000000","36BE"
185.125,-179.625,-50.250,-18.500,-44.750,-142.640,83.900,58.220,-0.660,135,4167, ,"000000000208000000000000000000000000000001020600000000000000000000000004800000000000000200420000000000000000000300009F0000410F0000680000E40000000000000000000000000000000000000000000000200044000000000000","36A0"
107.750,121.500,-285.125,-5.375,-55.875,-19.080,-92.280,111.660,-0.620,135,4168, ,"000000000208000000000000000000000000000001020600000000000000000000000004800000000000000200420000000000000000000300009F0000410F0000680000E40000000000000000000000000000000000000000000000200044000000000000","36A1"
-196.250,154.875,-11.875,-6.125,-53.250,141.180,-85.500,-59.220,-0.580,135,4168, ,"000000000208000000000000000000000000000001020600000000000000000000000004800000000000000200420000000000000000000300009F0000410F0000680000E40000000000000000000000000000000000000000000000200044000000000000","36A2"
-119.625,-145.750,223.875,-19.125,-41.500,18.140,91.060,-112.840,-0.640,135,4168, ,"000000000208000000000000000000000000000001020600000000000000000000000004800000000000000200420000000000000000000300009F0000410F0000680000E40000000000000000000000000000000000000000000000200044000000000000","36CA"
184.375,-179.250,-49.500,-18.375,-44.375,-142.480,84.140,57.840,-0.600,135,4167, ,"000000000208000000000000000000000000000001020600000000000000000000000004800000000000000200420000000000000000000300009F0000410F0000680000E40000000000000000000000000000000000000000000000200044000000000000","36B3"
107.125,121.500,-284.500,-5.000,-55.875,-19.280,-92.080,111.740,-0.640,135,4168, ,"000000000208000000000000000000000000000001020600000000000000000000000004800000000000000200420000000000000000000300009F0000410F0000680000E40000000000000000000000000000000000000000000000200044000000000000","368B"
-196.250,155.375,-12.500,-5.625,-53.375,141.220,-85.580,-59.160,-0.540,135,4168, ,"000000000208000000000000000000000000000001020600000000000000000000000004800000000000000200420000000000000000000300009F0000410F0000680000E40000000000000000000000000000000000000000000000200044000000000000","369E"
-120.250,-145.750,224.500,-19.125,-41.500,18.320,90.980,-112.920,-0.600,135,4168, ,"000000000208000000000000000000000000000001020600000000000000000000000004800000000000000200420000000000000000000300009F0000410F0000680000E40000000000000000000000000000000000000000000000200044000000000000","36B3"
185.000,-180.375,-49.250,-18.500,-44.625,-142.460,84.200,57.860,-0.660,135,4167, ,"000000000208000000000000000000000000000001020600000000000000000000000004800000000000000200420000000000000000000300009F0000410F0000680000E40000000000000000000000000000000000000000000000200044000000000000","369E"
107.625,121.500,-285.375,-5.000,-56.250,-19.320,-92.140,111.640,-0.600,135,4168, ,"000000000208000000000000000000000000000001020600000000000000000000000004800000000000000200420000000000000000000300009F0000410F0000680000E40000000000000000000000000000000000000000000000200044000000000000","3682"
-196.500,154.875,-12.625,-5.750,-54.250,141.240,-85.360,-59.280,-0.600,135,4168, ,"000000000208000000000000000000000000000001020600000000000000000000000004800000000000000200420000000000000000000300009F0000410F0000680000E40000000000000000000000000000000000000000000000200044000000000000","369E"
24.000,202.750,313.000,-595.625,539.750,26.160,10.860,-112.300,-0.600,135,4168, ,"000000000208000000000000000000000000000001020600000000000000000000000004800000000000000200420000000000000000000300009F0000410F0000680000E40000000000000000000000000000000000000000000000200044000000000000","365B"
816.375,980.500,652.375,-2523,2449,-144.460,11.800,73.380,-0.700,135,4167, ,"000000000208000000000000003000000000000001020600000000000000000000000004800000000000000200420000000000000000000300009F0000410F0000680000E400000000000000000000000000000000000000000000002000C5000000000000","35A4"
574.375,724.750,260.500,-1631,1560,-24.020,-1.060,124.280,-0.580,135,4168, ,"000000000220000000000000003000000000000003020600000000000000002200000004800000000000000200420000000000000000000300009F0000410F0000680000E40080000000000000000000000000000000000000000000200081000000000000","357C"
-291.875,-202.625,-213.000,631.250,-707.500,131.400,-5.460,-55.880,-0.540,135,0000,">","00000000022000000080800000300000000000000302060000000000000000AA00000004800000000000000200420000000000000000000300009F0000410F0000680000E40280000000000000000000000000000000000000000000200081000000000000","37AB"
-188.000,-94.000,166.500,29.625,-115.500,8.600,6.940,-119.780,-0.660,135,4168, ,"00000000022000000080800000700000400000000302060000000000000000AA00000004800000000000000200420000000000000000000300001F0000410F0000680000E40280000000000000000000000000000000000000000000200081000000000000","3677"
677.250,672.375,502.500,-1935,1852,-127.480,8.780,79.540,-0.640,135,4167, ,"00000000082000000080800000700000400000000302060000000000000000AA22000204800000000000000200420000000000000000000300001F0000410F0000680000E40288000000000000000000000000000000000000000000200081000000000000","35C0"
507.500,503.125,23.000,-1116,1034,-24.180,-0.400,114.120,-0.620,135,4168, ,"00000000082000000080800000700000400000000302060000000000000000AA22000204800000000000000200420000000000000000000300001F0000410F0000680000E40288000000000000000000000000000000000000000000200081000000000000","3562"
-412.875,-335.125,-310.500,972.500,-1059,135.640,-5.780,-55.000,-0.520,135,4168, ,"00000000082000000080800000700000400000000302060000000000000000AA22000204800000000000000200420000000000000000000300001F0000410F0000680000E40288000000000000000000000000000000000000000000200081000000000000","36E1"
-346.125,-234.125,120.500,367.875,-459.750,11.340,4.320,-115.280,-0.620,135,4168, ,"00000000082000000080800000700000400000000302060000000000000000AA22000204800000000000000200420000000000000000000300001F0000410F0000680000E40288000000000000000000000000000000000000000000200081000000000000","371B"
592.500,558.125,425.625,-1665,1576,-130.600,8.020,78.900,-0.700,135,4167, ,"00000000082000000080800000700000400000000302060000000000000000AA22000204800000000000000200420000000000000000000300001F0000410F0000680000E40288000000000000000000000000000000000000000000200081000000000000","35A8"
451.625,409.125,-63.875,-883.250,796.875,-29.980,-1.240,116.800,-0.600,135,4168, ,"00000000082000000080800000700000400000000302060000000000000000AA22000204800000000000000200420000000000000000000300001F0000410F0000680000E40288000000000000000000000000000000000000000000200081000000000000","3716"
-456.500,-398.750,-392.125,1158,-1247,134.120,-6.680,-52.580,-0.520,135,4168, ,"00000000082000000080800000700000400000000302060000000000000000AA22000204800000000000000200420000000000000000000300001F0000410F0000680000E40288000000000000000000000000000000000000000000200081000000000000","365F"
-393.625,-289.375,57.625,531.250,-625.375,9.360,3.500,-119.800,-0.640,135,4168, ,"00000000082000000080800000700000400000000302060000000000000000AA22000204800000000000000200420000000000000000000300001F0000410F0000680000E40288000000000000000000000000000000000000000000200080000000000000","36D9"
