"FID","RID","SID","03E2"
"FID=SEL-487E-R112-V0-Z006002-D20110802","=2T1-4 +R24 -F003 PROT DIFF TRAFO","SE RUBIALES BAHIA TRAFO","17A5"
"MONTH","DAY","YEAR","HOUR","MIN","SEC","MSEC","USEC","0C6A"
9,21,2022,6,48,48,723,876,"0511"
"EVENT_NUM","FREQ","NFREQ","SAM/CYC_A","SAM/CYC_D","NUM_OF_CYC","SER_NUM","PRIM_VAL","CTR_IAS","CTR_IBS","CTR_ICS","CTR_IAT","CTR_IBT","CTR_ICT","CTR_IAU","CTR_IBU","CTR_ICU","CTR_IAW","CTR_IBW","CTR_ICW","CTR_IAX","CTR_IBX","CTR_ICX","CTR_IY1","CTR_IY2","CTR_IY3","PTR_VAV","PTR_VBV","PTR_VCV","PTR_VAZ","PTR_VBZ","PTR_VCZ","CTRS","CTRT","CTRU","CTRW","CTRX","CTRY1","CTRY2","CTRY3","PTRV","PTRZ","ERAQ01","ERAQ02","ERAQ03","ERAQ04","ERAQ05","ERAQ06","ERAQ07","ERAQ08","ERAQ09","ERAQ10","ERAQ11","ERAQ12","ERAQ13","ERAQ14","ERAQ15","ERAQ16","ERAQ17","ERAQ18","ERAQ19","ERAQ20","EVENT","TIME_SOURCE","FREQUENCY","GROUP","BKR_S","HOUR_T1","MIN_T1","SEC_T1","MSEC_T1","HOUR_C1","MIN_C1","SEC_C1","MSEC_C1","BKR_T","HOUR_T2","MIN_T2","SEC_T2","MSEC_T2","HOUR_C2","MIN_C2","SEC_C2","MSEC_C2","BKR_U","HOUR_T3","MIN_T3","SEC_T3","MSEC_T3","HOUR_C3","MIN_C3","SEC_C3","MSEC_C3","BKR_W","HOUR_T4","MIN_T4","SEC_T4","MSEC_T4","HOUR_C4","MIN_C4","SEC_C4","MSEC_C4","BKR_X","HOUR_T5","MIN_T5","SEC_T5","MSEC_T5","HOUR_C5","MIN_C5","SEC_C5","MSEC_C5","T_LED1","T_LED2","TARGETS","IAS","IAS_DEG","IBS","IBS_DEG","ICS","ICS_DEG","IAT","IAT_DEG","IBT","IBT_DEG","ICT","ICT_DEG","IAU","IAU_DEG","IBU","IBU_DEG","ICU","ICU_DEG","IAW","IAW_DEG","IBW","IBW_DEG","ICW","ICW_DEG","IAX","IAX_DEG","IBX","IBX_DEG","ICX","ICX_DEG","IY1","IY1_DEG","IY2","IY2_DEG","IY3","IY3_DEG","VAV","VAV_DEG","VBV","VBV_DEG","VCV","VCV_DEG","VAZ","VAZ_DEG","VBZ","VBZ_DEG","VCZ","VCZ_DEG","IOPA","IRTA","IOPB","IRTB","IOPC","IRTC","6D24"
14986,60.00,60,4,4,30,"1121650378","YES",800.0,800.0,800.0,800.0,800.0,800.0,800.0,800.0,800.0,500.0,500.0,500.0,500.0,500.0,500.0,100.0,100.0,100.0,2000,2000,2000,2000,2000,2000,800,800,800,500,500,100,100,100,2000,2000," "," "," "," "," "," "," "," "," "," "," "," "," "," "," "," "," "," "," "," ","TRIP","HIRIG",59.982,1,"OPEN",6,48,48,836, , , , ,"OPEN", , , , , , , , ,"OPEN", , , , , , , , ,"OPEN",6,48,48,836, , , , ,"OPEN", , , , , , , , ,128,0,"TLED_1",643,151.3,588,153.1,385,-175.1,0,38.8,0,-90.3,0,17.5,0,-41.3,1,-11.2,0,-109.0,912,-57.8,567,-65.4,1500,119.7,0,132.6,0,-19.8,1,52.5,0,179.2,0,58.2,0,-53.3,124,0.0,9,-145.4,130,124.7,0,14.4,0,-20.9,0,-28.2,0.03,0.63,0.02,0.39,0.04,1.02,"809D"
"IAS(A)","IBS(A)","ICS(A)","IAT(A)","IBT(A)","ICT(A)","IAU(A)","IBU(A)","ICU(A)","IAW(A)","IBW(A)","ICW(A)","IAX(A)","IBX(A)","ICX(A)","IY1(A)","IY2(A)","IY3(A)","VAV(kV)","VBV(kV)","VCV(kV)","VAZ(kV)","VBZ(kV)","VCZ(kV)","IOPA","IRTA","IOPB","IRTB","IOPC","IRTC","IAH2","IBH2","ICH2","IAH4","IBH4","ICH4","IAH5","IBH5","ICH5","ANA01","ANA02","ANA03","ANA04","ANA05","ANA06","ANA07","ANA08","ANA09","ANA10","ANA11","ANA12","ANA13","ANA14","ANA15","ANA16","ANA17","ANA18","ANA19","ANA20","TRIG","TRPXFMR TRIPS TRIPT TRIPU TRIPW TRIPX 87RA 87RB 87RC 87Q REFF1 REFF2 REFF3 REFR1 REFR2 REFR3 VPOLV VPOLZ LOPV LOPZ SF32P SR32P SF32Q SR32Q SF32G SR32G TF32P TR32P TF32Q TR32Q TF32G TR32G UF32P UR32P UF32Q UR32Q UF32G UR32G WF32P WR32P WF32Q WR32Q WF32G WR32G XF32P XR32P XF32Q XR32Q XF32G XR32G FBFS FBFT FBFU FBFW FBFX IN101 IN102 IN103 IN104 IN105 IN106 IN107 OUT101 OUT102 OUT103 OUT104 OUT105 OUT106 OUT107 OUT108 RMB1A RMB2A RMB3A RMB4A RMB5A RMB6A RMB7A RMB8A TMB1A TMB2A TMB3A TMB4A TMB5A TMB6A TMB7A TMB8A ROKA RBADA CBADA LBOKA ANOKA DOKA PSV01 PSV02 PSV03 PSV04 PSV05 PSV06 PSV07 PSV08 PLT01 PLT02 PLT03 PLT04 PLT05 PLT06 PLT07 PLT08 PCT01Q PCT02Q PCT03Q PCT04Q PCT05Q PCT06Q PCT07Q PCT08Q CCS CCT CCU CCW CCX OCS OCT OCU OCW OCX * *","20DA"
44,-221,180,0,0,0,0,0,1,-277,1410,-1134,0,0,1,0,0,0,-65.6,131.5,-65.5,0.0,0.0,0.0,0.03,1.01,0.03,1.02,0.03,1.01,0,0,0,0,0,0,0,0,0, , , , , , , , , , , , , , , , , , , , , ,"00008000000000C00400000000040000","24DE"
229,-80,-154,0,0,0,0,-1,0,-1458,496,965,0,0,1,0,0,0,-114.8,1.0,113.7,0.0,0.0,0.0,0.03,1.01,0.03,1.02,0.03,1.01,0,0,0,0,0,0,0,0,0, , , , , , , , , , , , , , , , , , , , , ,"00008000000000C00400000000040000","24C1"
-44,221,-180,0,0,0,0,0,0,275,-1410,1135,0,1,0,0,0,0,65.6,-131.5,65.5,0.0,0.0,0.0,0.03,1.01,0.03,1.02,0.03,1.01,0,0,0,0,0,0,0,0,0, , , , , , , , , , , , , , , , , , , , , ,"00008000000000C00400000000040000","24AF"
-229,80,154,0,0,0,0,0,-1,1460,-496,-965,0,0,0,0,0,0,114.8,-1.0,-113.7,0.0,0.0,0.0,0.03,1.01,0.03,1.02,0.03,1.01,0,0,0,0,0,0,0,0,0, , , , , , , , , , , , , , , , , , , , , ,"00008000000000C00400000000040000","24E6"
44,-221,180,0,0,0,0,0,0,-275,1409,-1133,0,-1,-1,0,0,0,-65.6,131.5,-65.5,0.0,0.0,0.0,0.03,1.01,0.02,1.02,0.03,1.01,0,0,0,0,0,0,0,0,0, , , , , , , , , , , , , , , , , , , , , ,"00008000000000C00400000000040000","253C"
229,-80,-154,0,0,0,1,0,1,-1459,496,964,0,0,0,0,0,0,-114.8,1.1,113.7,0.0,0.0,0.0,0.03,1.01,0.03,1.02,0.03,1.01,0,0,0,0,0,0,0,0,0, , , , , , , , , , , , , , , , , , , , , ,"00008000000000C00400000000040000","2495"
-44,221,-180,0,0,0,0,0,0,276,-1409,1133,0,0,0,0,0,0,65.5,-131.5,65.5,0.0,0.0,0.0,0.03,1.01,0.03,1.02,0.03,1.01,0,0,0,0,0,0,0,0,0, , , , , , , , , , , , , , , , , , , , , ,"00008000000000C00400000000040000","24B4"
-229,80,154,0,0,0,-1,0,-1,1459,-496,-963,-1,0,-1,0,0,0,114.9,-1.1,-113.6,0.0,0.0,0.0,0.03,1.01,0.03,1.02,0.03,1.01,0,0,0,0,0,0,0,0,0, , , , , , , , , , , , , , , , , , , , , ,"00008000000000C00400000000040000","2577"
44,-222,180,0,0,0,0,0,0,-276,1409,-1135,0,-1,0,0,0,0,-65.5,131.5,-65.5,0.0,0.0,0.0,0.03,1.01,0.03,1.02,0.03,1.01,0,0,0,0,0,0,0,0,0, , , , , , , , , , , , , , , , , , , , , ,"00008000000000C00400000000040000","2512"
229,-80,-153,0,0,0,0,0,1,-1458,496,964,1,-1,1,0,0,0,-114.8,1.1,113.7,0.0,0.0,0.0,0.03,1.01,0.03,1.02,0.03,1.01,0,0,0,0,0,0,0,0,0, , , , , , , , , , , , , , , , , , , , , ,"00008000000000C00400000000040000","24C2"
-44,221,-180,0,0,0,0,0,0,275,-1410,1135,-1,1,0,0,0,0,65.6,-131.5,65.5,0.0,0.0,0.0,0.03,1.01,0.02,1.02,0.03,1.01,0,0,0,0,0,0,0,0,0, , , , , , , , , , , , , , , , , , , , , ,"00008000000000C00400000000040000","24DC"
-229,80,154,0,0,0,0,0,0,1459,-495,-965,0,0,0,0,0,0,114.8,-1.0,-113.7,0.0,0.0,0.0,0.03,1.01,0.03,1.02,0.03,1.01,0,0,0,0,0,0,0,0,0, , , , , , , , , , , , , , , , , , , , , ,"00008000000000C00400000000040000","24BF"
44,-222,180,0,0,0,0,0,0,-275,1411,-1135,0,1,0,0,0,0,-65.6,131.5,-65.5,0.0,0.0,0.0,0.03,1.01,0.03,1.02,0.03,1.01,0,0,0,0,0,0,0,0,0, , , , , , , , , , , , , , , , , , , , , ,"00008000000000C00400000000040000","24DE"
229,-80,-154,0,0,0,0,0,0,-1460,495,965,0,1,-1,0,0,0,-114.8,1.0,113.7,0.0,0.0,0.0,0.03,1.01,0.03,1.02,0.03,1.02,0,0,0,0,0,0,0,0,0, , , , , , , , , , , , , , , , , , , , , ,"00008000000000C00400000000040000","24BA"
-44,221,-180,0,0,0,0,0,-1,276,-1411,1135,0,-1,1,0,0,0,65.5,-131.5,65.5,0.0,0.0,0.0,0.03,1.01,0.03,1.02,0.03,1.01,0,0,0,0,0,0,0,0,0, , , , , , , , , , , , , , , , , , , , , ,"00008000000000C00400000000040000","250C"
-229,80,154,0,0,0,0,0,0,1459,-495,-964,0,0,1,0,0,0,114.8,-1.0,-113.7,0.0,0.0,0.0,0.03,1.01,0.03,1.02,0.03,1.01,0,0,0,0,0,0,0,0,0, , , , , , , , , , , , , , , , , , , , , ,"00008000000000C00400000000040000","24BF"
44,-221,180,0,0,0,0,0,0,-276,1409,-1134,0,0,-1,0,0,0,-65.5,131.5,-65.5,0.0,0.0,0.0,0.03,1.01,0.02,1.02,0.03,1.01,0,0,0,0,0,0,0,0,0, , , , , , , , , , , , , , , , , , , , , ,"00008000000000C00400000000040000","250F"
228,-80,-154,0,0,0,0,0,0,-1457,494,964,-1,-1,0,0,0,0,-114.8,1.0,113.7,0.0,0.0,0.0,0.03,1.01,0.03,1.02,0.03,1.01,0,0,0,0,0,0,0,0,0, , , , , , , , , , , , , , , , , , , , , ,"00008000000000C00400000000040000","24E9"
-44,221,-180,0,0,0,0,0,0,276,-1407,1132,0,1,0,0,0,0,65.5,-131.5,65.5,0.0,0.0,0.0,0.03,1.01,0.03,1.02,0.03,1.01,0,0,0,0,0,0,0,0,0, , , , , , , , , , , , , , , , , , , , , ,"00008000000000C00400000000040000","24B2"
-229,80,153,0,0,0,0,0,-1,1457,-494,-965,1,0,0,0,0,0,114.8,-1.1,-113.6,0.0,0.0,0.0,0.03,1.01,0.03,1.02,0.03,1.01,0,0,0,0,0,0,0,0,0, , , , , , , , , , , , , , , , , , , , , ,"00008000000000C00400000000040000","24EA"
44,-222,180,0,0,0,0,0,0,-275,1408,-1133,0,0,0,0,0,0,-65.5,131.4,-65.5,0.0,0.0,0.0,0.03,1.01,0.03,1.02,0.03,1.01,0,0,0,0,0,0,0,0,0, , , , , , , , , , , , , , , , , , , , , ,"00008000000000C00400000000040000","24DF"
229,-80,-153,0,0,0,0,-1,1,-1458,495,965,0,0,0,0,0,0,-114.8,1.1,113.6,0.0,0.0,0.0,0.03,1.01,0.03,1.02,0.03,1.01,0,0,0,0,0,0,0,0,0, , , , , , , , , , , , , , , , , , , , , ,"00008000000000C00400000000040000","24BF"
-44,222,-180,0,0,0,0,0,0,275,-1411,1135,1,-1,-1,0,0,0,65.5,-131.4,65.5,0.0,0.0,0.0,0.03,1.01,0.03,1.02,0.03,1.01,0,0,0,0,0,0,0,0,0, , , , , , , , , , , , , , , , , , , , , ,"00008000000000C00400000000040000","250B"
-229,80,154,0,0,0,0,1,0,1459,-495,-965,-1,1,0,0,0,0,114.8,-1.1,-113.6,0.0,0.0,0.0,0.03,1.01,0.03,1.02,0.03,1.02,0,0,0,0,0,0,0,0,0, , , , , , , , , , , , , , , , , , , , , ,"00008000000000C00400000000040000","24F0"
104,-92,225,0,0,0,0,0,0,-178,1082,-919,0,0,0,0,0,0,-64.0,102.0,-65.8,0.0,0.0,0.0,0.03,1.00,0.02,0.81,0.03,0.91,0,0,0,0,0,0,0,0,0, , , , , , , , , , , , , , , , , , , , ,">","00008000000000C00400000000040000","2521"
404,223,49,0,0,0,0,-1,0,-1120,14,1122,0,-1,0,0,0,0,-113.2,-1.5,121.0,0.0,0.0,0.0,0.02,0.78,0.02,0.74,0.03,0.99,0,0,0,0,0,0,0,0,0, , , , , , , , , , , , , , , , , , , , , ,"00008000000000C00400000000040000","24AD"
-137,-72,-245,0,0,0,0,0,0,-66,-496,577,-1,0,0,0,0,0,61.5,-40.0,60.7,0.0,0.0,0.0,0.02,0.77,0.01,0.34,0.03,0.86,0,0,0,0,0,0,0,0,0, , , , , , , , , , , , , , , , , , , , , ,"00008000000000C00400000000040000","249E"
-609,-584,-314,0,0,1,0,1,0,670,526,-1222,0,1,1,0,0,0,108.2,0.1,-123.9,0.0,0.0,0.0,0.01,0.46,0.01,0.49,0.02,0.91,0,0,0,0,0,0,0,0,0, , , , , , , , , , , , , , , , , , , , , ,"00008000000000C00400000000040000","24F9"
52,45,214,0,0,0,0,0,1,279,337,-617,0,1,0,0,0,0,-62.2,7.7,-53.7,0.0,0.0,0.0,0.02,0.51,0.02,0.43,0.04,0.93,0,0,0,0,0,0,0,0,0, , , , , , , , , , , , , , , , , , , , , ,"00008000000000C00400000000040000","23B0"
630,579,319,0,0,0,0,-1,0,-764,-451,1240,0,-1,0,0,0,0,-104.5,3.5,118.5,0.0,0.0,0.0,0.03,0.56,0.02,0.39,0.04,0.94,0,0,0,0,0,0,0,0,0, , , , , , , , , , , , , , , , , , , , ,"*","00008000000000C00400000000040000","2557"
-14,-13,-233,0,0,0,0,0,0,-412,-438,853,0,0,1,0,0,0,60.5,-7.7,53.5,0.0,0.0,0.0,0.03,0.60,0.02,0.44,0.04,1.03,0,0,0,0,0,0,0,0,0, , , , , , , , , , , , , , , , , , , , , ,"00008000000000C00400000000040000","2422"
-652,-542,-289,0,0,0,0,0,0,1007,324,-1360,-1,-1,0,0,0,0,103.9,-3.7,-115.2,0.0,0.0,0.0,0.03,0.75,0.02,0.38,0.04,1.09,0,0,0,0,0,0,0,0,0, , , , , , , , , , , , , , , , , , , , , ,"00008000000000C00400000000040000","25B5"
5,13,266,0,0,0,0,0,0,495,473,-970,0,0,1,0,0,0,-58.3,7.6,-55.4,0.0,0.0,0.0,0.03,0.78,0.02,0.40,0.06,1.14,0,0,64,0,0,49,0,0,35, , , , , , , , , , , , , , , , , , , , , ,"00008000000000C00400000000040000","2438"
673,543,284,0,0,0,0,0,0,-1107,-295,1430,1,1,0,0,0,0,-103.3,3.9,114.6,0.0,0.0,0.0,0.04,0.84,0.03,0.39,0.06,1.18,0,0,62,0,0,49,0,0,35, , , , , , , , , , , , , , , , , , , , , ,"00008000000000C00400000000040000","258A"
6,1,-269,0,0,0,0,0,0,-519,-509,1031,0,0,0,0,0,0,56.8,-7.6,57.0,0.0,0.0,0.0,0.04,0.84,0.03,0.41,0.06,1.21,0,0,62,0,0,47,0,0,34, , , , , , , , , , , , , , , , , , , , , ,"00008000000000C00400000000040000","2451"
-670,-529,-281,0,0,0,0,0,0,1135,253,-1418,0,0,0,0,0,0,103.2,-3.9,-113.9,0.0,0.0,0.0,0.04,0.86,0.03,0.40,0.06,1.20,0,0,72,0,0,53,0,0,35, , , , , , , , , , , , , , , , , , , , , ,"00008000000000C00400000000040000","25FE"
-3,6,275,0,0,0,0,0,0,513,496,-1012,0,1,1,0,0,0,-56.9,7.7,-57.0,0.0,0.0,0.0,0.04,0.86,0.03,0.39,0.07,1.19,0,0,65,0,0,48,0,0,34, , , , , , , , , , , , , , , , , , , , , ,"00008000000000C00400000000040000","2467"
670,528,289,0,0,0,0,0,0,-1118,-230,1377,0,0,0,0,0,0,-103.0,4.1,114.0,0.0,0.0,0.0,0.04,0.85,0.03,0.39,0.07,1.17,0,0,66,0,0,49,0,0,34, , , , , , , , , , , , , , , , , , , , , ,"00008000000000C00400000000040000","2582"
4,-7,-272,0,0,0,0,0,0,-514,-484,1001,0,0,0,0,0,0,57.0,-7.9,56.5,0.0,0.0,0.0,0.04,0.85,0.03,0.38,0.07,1.17,0,0,67,0,0,50,0,0,34, , , , , , , , , , , , , , , , , , , , , ,"00008000000000C00400000000040000","2482"
-665,-522,-291,0,0,0,0,0,0,1103,214,-1347,1,0,-1,0,0,0,103.3,-4.1,-114.3,0.0,0.0,0.0,0.04,0.84,0.03,0.38,0.07,1.15,0,0,72,0,0,53,0,0,33, , , , , , , , , , , , , , , , , , , , , ,"00008000000000C00400000000040000","2621"
-2,14,277,0,0,0,0,0,0,512,470,-984,0,0,1,0,0,0,-57.7,7.9,-55.8,0.0,0.0,0.0,0.05,0.85,0.03,0.37,0.07,1.15,0,0,67,0,0,51,0,0,32, , , , , , , , , , , , , , , , , , , , , ,"00008000000000C00400000000040000","2469"
664,522,298,0,0,0,0,-1,0,-1076,-207,1311,-1,0,1,0,0,0,-103.4,4.2,115.1,0.0,0.0,0.0,0.05,0.83,0.03,0.36,0.07,1.13,0,0,67,0,0,51,0,0,33, , , , , , , , , , , , , , , , , , , , , ,"00008000000000C00400000000040000","25CF"
0,-17,-274,0,0,0,0,0,0,-507,-453,959,0,0,-1,0,0,0,58.2,-7.9,55.1,0.0,0.0,0.0,0.05,0.83,0.03,0.35,0.07,1.12,0,0,68,0,0,51,0,0,34, , , , , , , , , , , , , , , , , , , , , ,"00008000000000C00400000000040000","24B9"
-658,-516,-304,0,0,0,0,0,0,1050,181,-1258,0,0,0,0,0,0,103.5,-4.1,-115.7,0.0,0.0,0.0,0.05,0.81,0.03,0.35,0.07,1.09,0,0,70,0,0,53,0,0,33, , , , , , , , , , , , , , , , , , , , , ,"00008000000000C00400000000040000","25FA"
1,25,274,0,0,0,0,0,0,503,426,-931,-1,0,0,0,0,0,-58.7,7.9,-54.3,0.0,0.0,0.0,0.05,0.82,0.03,0.33,0.08,1.08,57,0,68,54,0,51,28,0,34, , , , , , , , , , , , , , , , , , , , , ,"00008000000000C00400000000040000","2509"
656,510,310,0,0,0,0,0,0,-1038,-152,1218,0,0,1,0,0,0,-103.4,4.4,116.0,0.0,0.0,0.0,0.05,0.81,0.03,0.32,0.08,1.06,61,0,68,54,0,52,27,0,34, , , , , , , , , , , , , , , , , , , , , ,"00008000000000C00400000000040000","2610"
-1,-30,-273,0,0,0,0,0,0,-508,-404,916,0,0,-1,0,0,0,59.1,-8.0,53.8,0.0,0.0,0.0,0.05,0.81,0.03,0.31,0.08,1.06,60,0,69,53,0,51,27,0,33, , , , , , , , , , , , , , , , , , , , , ,"00008000000000C00400000000040000","2579"
-654,-506,-312,0,0,0,0,0,0,1036,131,-1196,-1,0,0,0,0,0,103.5,-4.4,-116.3,0.0,0.0,0.0,0.05,0.81,0.03,0.30,0.08,1.05,60,0,69,53,0,51,27,0,33, , , , , , , , , , , , , , , , , , , , , ,"00008000000000C00400000000040000","26C7"
3,35,274,0,0,0,0,0,0,510,387,-899,0,0,1,0,0,0,-59.3,8.1,-53.4,0.0,0.0,0.0,0.06,0.81,0.03,0.29,0.08,1.04,58,0,68,55,0,52,29,0,33, , , , , , , , , , , , , , , , , , , , , ,"00008000000000C00400000000040000","24EA"
654,503,314,0,0,0,0,0,0,-1032,-118,1179,0,0,0,0,0,0,-103.4,4.6,116.6,0.0,0.0,0.0,0.06,0.81,0.03,0.29,0.08,1.03,60,0,68,53,0,52,30,0,34, , , , , , , , , , , , , , , , , , , , , ,"00008000000000C00400000000040000","2619"
-4,-39,-273,0,0,0,0,0,0,-513,-374,888,1,0,0,0,0,0,59.4,-8.2,53.2,0.0,0.0,0.0,0.06,0.81,0.03,0.28,0.08,1.03,61,0,68,53,0,53,30,0,35, , , , , , , , , , , , , , , , , , , , , ,"00008000000000C00400000000040000","2563"
-653,-500,-314,0,0,0,0,0,0,1032,105,-1168,0,0,-1,0,0,0,103.4,-4.7,-116.8,0.0,0.0,0.0,0.06,0.81,0.03,0.28,0.08,1.02,62,0,68,54,0,53,30,0,35, , , , , , , , , , , , , , , , , , , , , ,"C8008000000000C26400000182040000","26F8"
4,43,273,0,0,0,0,0,0,511,364,-876,0,0,0,0,0,0,-59.5,8.4,-53.1,0.0,0.0,0.0,0.06,0.81,0.02,0.27,0.08,1.02,61,0,69,53,0,53,30,0,34, , , , , , , , , , , , , , , , , , , , , ,"C8008000000000C26400000182040000","24FD"
653,500,316,0,0,0,0,-1,0,-1025,-101,1157,0,0,1,0,0,0,-103.3,4.6,117.0,0.0,0.0,0.0,0.06,0.81,0.03,0.27,0.08,1.01,62,0,68,53,0,53,30,0,34, , , , , , , , , , , , , , , , , , , , , ,"C8008000000000C26400000182040000","2663"
-6,-46,-272,0,0,0,0,0,0,-512,-349,863,0,0,-1,0,0,0,59.7,-8.2,52.9,0.0,0.0,0.0,0.06,0.81,0.03,0.26,0.08,1.00,63,0,69,54,0,53,30,0,35, , , , , , , , , , , , , , , , , , , , , ,"C8008000000000C26400000182040000","25BF"
-651,-498,-317,0,0,0,0,1,0,1017,95,-1142,0,-1,-1,0,0,0,103.3,-4.8,-117.3,0.0,0.0,0.0,0.06,0.81,0.03,0.26,0.08,1.00,62,0,67,53,0,52,30,0,34, , , , , , , , , , , , , , , , , , , , , ,"C8008000000000426400000182040000","26F0"
7,50,270,0,0,0,0,0,0,511,338,-845,0,1,1,0,0,0,-59.9,9.5,-52.6,0.0,0.0,0.0,0.06,0.80,0.02,0.25,0.08,0.99,61,0,68,55,0,54,31,0,35, , , , , , , , , , , , , , , , , , , , , ,"C8008000000000426400000182040000","2505"
486,361,226,0,0,0,0,0,0,-800,-60,882,0,0,-1,0,0,0,-86.7,14.2,104.6,0.0,0.0,0.0,0.06,0.68,0.02,0.25,0.08,0.86,62,0,65,57,0,54,31,0,35, , , , , , , , , , , , , , , , , , , , , ,"C8008000000000426400000182040000","25F3"
1,-26,-194,0,0,0,0,0,0,-339,-265,595,0,0,0,0,0,0,28.4,-30.9,48.9,0.0,0.0,0.0,0.06,0.62,0.02,0.19,0.07,0.75,69,0,77,58,0,60,34,0,41, , , , , , , , , , , , , , , , , , , , , ,"C8008000000000426400000182040000","2599"
-164,-112,-58,0,0,0,0,0,-1,299,21,-323,1,0,0,0,0,0,67.0,-30.1,-62.2,0.0,0.0,0.0,0.06,0.35,0.02,0.19,0.07,0.52,50,0,25,28,0,11,34,0,40, , , , , , , , , , , , , , , , , , , , , ,"C8008000000001426400000182040000","25E9"
1,1,48,0,0,0,0,0,0,94,109,-200,0,0,0,0,0,0,16.3,46.0,-57.3,0.0,0.0,0.0,0.02,0.23,0.01,0.07,0.01,0.26,0,0,0,0,0,0,0,0,0, , , , , , , , , , , , , , , , , , , , , ,"C8008000000001426400000182040000","22E7"
0,0,0,0,0,0,0,0,1,3,-6,2,-1,0,0,0,0,0,-56.5,41.4,16.0,0.0,0.0,0.0,0.00,0.07,0.00,0.07,0.00,0.14,0,0,0,0,0,0,0,0,0, , , , , , , , , , , , , , , , , , , , , ,"C8008000000001426400000182040000","21D2"
0,0,0,0,0,0,0,0,0,3,-5,2,0,0,0,0,0,0,-28.6,-32.2,61.2,0.0,0.0,0.0,0.00,0.00,0.00,0.00,0.00,0.00,0,0,0,0,0,0,0,0,0, , , , , , , , , , , , , , , , , , , , , ,"C8008000000001426400000182040000","21BC"
0,0,0,0,0,0,0,0,0,-4,5,-2,1,0,0,0,0,0,41.9,-47.1,5.3,0.0,0.0,0.0,0.00,0.00,0.00,0.00,0.00,0.00,0,0,0,0,0,0,0,0,0, , , , , , , , , , , , , , , , , , , , , ,"C8008000000001426400000182040000","2190"
0,0,0,0,0,0,0,0,0,0,-1,0,0,0,-1,0,0,0,22.8,19.1,-41.8,0.0,0.0,0.0,0.00,0.00,0.00,0.00,0.00,0.00,0,0,0,0,0,0,0,0,0, , , , , , , , , , , , , , , , , , , , , ,"C8008000000001426400000182040000","21B8"
0,0,0,0,0,0,0,0,0,0,1,0,0,-1,1,0,0,0,-22.6,37.2,-14.7,0.0,0.0,0.0,0.00,0.00,0.00,0.00,0.00,0.00,0,0,0,0,0,0,0,0,0, , , , , , , , , , , , , , , , , , , , , ,"C8008000000001426400000182040000","21B7"
0,0,0,0,0,0,0,0,0,0,0,0,0,1,0,0,0,0,-6.8,-11.3,18.0,0.0,0.0,0.0,0.00,0.00,0.00,0.00,0.00,0.00,0,0,0,0,0,0,0,0,0, , , , , , , , , , , , , , , , , , , , , ,"C8008000000001426400000182040000","2152"
0,0,-1,0,0,0,0,0,0,0,-1,-1,0,0,-1,0,0,0,4.5,-16.0,11.4,0.0,0.0,0.0,0.00,0.00,0.00,0.00,0.00,0.00,0,0,0,0,0,0,0,0,0, , , , , , , , , , , , , , , , , , , , , ,"C8008000000001426400000182040000","21D6"
0,0,0,0,0,0,0,0,0,0,0,1,0,0,0,0,0,0,-0.7,4.0,-3.3,0.0,0.0,0.0,0.00,0.00,0.00,0.00,0.00,0.00,0,0,0,0,0,0,0,0,0, , , , , , , , , , , , , , , , , , , , , ,"C8008000000001426400000182040000","20E7"
0,0,0,0,0,0,0,0,0,0,1,0,0,0,1,0,0,0,0.2,3.2,-3.5,0.0,0.0,0.0,0.00,0.00,0.00,0.00,0.00,0.00,0,0,0,0,0,0,0,0,0, , , , , , , , , , , , , , , , , , , , , ,"C8008000000001426400000182040000","20B9"
0,0,0,0,0,0,0,0,0,0,0,0,0,0,0,0,0,0,0.1,-0.2,0.1,0.0,0.0,0.0,0.00,0.00,0.00,0.00,0.00,0.00,0,0,0,0,0,0,0,0,0, , , , , , , , , , , , , , , , , , , , , ,"C8008000000001426400000182040000","20AC"
0,0,0,0,0,0,0,0,0,1,0,0,0,0,-1,0,0,0,-0.1,-0.4,0.5,0.0,0.0,0.0,0.00,0.00,0.00,0.00,0.00,0.00,0,0,0,0,0,0,0,0,0, , , , , , , , , , , , , , , , , , , , , ,"C8008000000001426400000182040000","210E"
0,0,-1,0,0,0,0,0,0,-1,-1,0,-1,0,0,0,0,0,0.0,0.1,-0.1,0.0,0.0,0.0,0.00,0.00,0.00,0.00,0.00,0.00,0,0,0,0,0,0,0,0,0, , , , , , , , , , , , , , , , , , , , , ,"C8008000000001426400000182040000","2162"
0,0,0,0,0,0,0,0,0,0,0,0,0,0,0,0,0,0,0.0,0.0,0.0,0.0,0.0,0.0,0.00,0.00,0.00,0.00,0.00,0.00,0,0,0,0,0,0,0,0,0, , , , , , , , , , , , , , , , , , , , , ,"C8008000000001426400000182040000","207B"
0,0,0,0,0,0,0,0,0,0,1,0,1,-1,0,0,0,0,0.0,0.0,0.0,0.0,0.0,0.0,0.00,0.00,0.00,0.00,0.00,0.00,0,0,0,0,0,0,0,0,0, , , , , , , , , , , , , , , , , , , , , ,"C8008000000001426400000182040000","20AB"
0,0,0,0,0,0,0,0,0,0,0,0,0,0,-1,0,0,0,0.0,0.0,0.0,0.0,0.0,0.0,0.00,0.00,0.00,0.00,0.00,0.00,0,0,0,0,0,0,0,0,0, , , , , , , , , , , , , , , , , , , , , ,"C8008000000001426400000182040000","20A9"
0,0,0,0,0,0,0,0,0,0,0,0,-1,1,0,0,0,0,0.0,0.0,0.0,0.0,0.0,0.0,0.00,0.00,0.00,0.00,0.00,0.00,0,0,0,0,0,0,0,0,0, , , , , , , , , , , , , , , , , , , , , ,"C8008000000001426400000182040000","20AA"
