"FID","RID","SID","03E2"
"FID=SEL-487E-R112-V0-Z006002-D20110802","=2T1-4 +R24 -F003 PROT DIFF TRAFO","SE RUBIALES BAHIA TRAFO","17A5"
"MONTH","DAY","YEAR","HOUR","MIN","SEC","MSEC","USEC","0C6A"
9,21,2022,7,0,47,124,579,"04D0"
"EVENT_NUM","FREQ","NFREQ","SAM/CYC_A","SAM/CYC_D","NUM_OF_CYC","SER_NUM","PRIM_VAL","CTR_IAS","CTR_IBS","CTR_ICS","CTR_IAT","CTR_IBT","CTR_ICT","CTR_IAU","CTR_IBU","CTR_ICU","CTR_IAW","CTR_IBW","CTR_ICW","CTR_IAX","CTR_IBX","CTR_ICX","CTR_IY1","CTR_IY2","CTR_IY3","PTR_VAV","PTR_VBV","PTR_VCV","PTR_VAZ","PTR_VBZ","PTR_VCZ","CTRS","CTRT","CTRU","CTRW","CTRX","CTRY1","CTRY2","CTRY3","PTRV","PTRZ","ERAQ01","ERAQ02","ERAQ03","ERAQ04","ERAQ05","ERAQ06","ERAQ07","ERAQ08","ERAQ09","ERAQ10","ERAQ11","ERAQ12","ERAQ13","ERAQ14","ERAQ15","ERAQ16","ERAQ17","ERAQ18","ERAQ19","ERAQ20","EVENT","TIME_SOURCE","FREQUENCY","GROUP","BKR_S","HOUR_T1","MIN_T1","SEC_T1","MSEC_T1","HOUR_C1","MIN_C1","SEC_C1","MSEC_C1","BKR_T","HOUR_T2","MIN_T2","SEC_T2","MSEC_T2","HOUR_C2","MIN_C2","SEC_C2","MSEC_C2","BKR_U","HOUR_T3","MIN_T3","SEC_T3","MSEC_T3","HOUR_C3","MIN_C3","SEC_C3","MSEC_C3","BKR_W","HOUR_T4","MIN_T4","SEC_T4","MSEC_T4","HOUR_C4","MIN_C4","SEC_C4","MSEC_C4","BKR_X","HOUR_T5","MIN_T5","SEC_T5","MSEC_T5","HOUR_C5","MIN_C5","SEC_C5","MSEC_C5","T_LED1","T_LED2","TARGETS","IAS","IAS_DEG","IBS","IBS_DEG","ICS","ICS_DEG","IAT","IAT_DEG","IBT","IBT_DEG","ICT","ICT_DEG","IAU","IAU_DEG","IBU","IBU_DEG","ICU","ICU_DEG","IAW","IAW_DEG","IBW","IBW_DEG","ICW","ICW_DEG","IAX","IAX_DEG","IBX","IBX_DEG","ICX","ICX_DEG","IY1","IY1_DEG","IY2","IY2_DEG","IY3","IY3_DEG","VAV","VAV_DEG","VBV","VBV_DEG","VCV","VCV_DEG","VAZ","VAZ_DEG","VBZ","VBZ_DEG","VCZ","VCZ_DEG","IOPA","IRTA","IOPB","IRTB","IOPC","IRTC","6D24"
14987,60.00,60,4,4,30,"1121650378","YES",800.0,800.0,800.0,800.0,800.0,800.0,800.0,800.0,800.0,500.0,500.0,500.0,500.0,500.0,500.0,100.0,100.0,100.0,2000,2000,2000,2000,2000,2000,800,800,800,500,500,100,100,100,2000,2000," "," "," "," "," "," "," "," "," "," "," "," "," "," "," "," "," "," "," "," ","ER","HIRIG",60.000,1,"CLOSED", , , , , , , , ,"OPEN", , , , , , , , ,"OPEN", , , , , , , , ,"OPEN", , , , , , , , ,"OPEN", , , , , , , , ,0,0," ",357,98.5,297,-38.8,109,-141.0,0,-65.3,0,173.7,0,-77.3,0,150.0,1,-75.7,1,-177.8,1,157.2,0,-143.2,1,-50.5,1,-59.1,0,59.4,1,-100.0,0,-7.6,0,-126.2,0,149.2,112,0.0,114,-118.2,129,121.0,0,-89.3,0,135.3,0,-36.3,0.73,0.73,0.66,0.66,0.34,0.34,"7BF9"
"IAS(A)","IBS(A)","ICS(A)","IAT(A)","IBT(A)","ICT(A)","IAU(A)","IBU(A)","ICU(A)","IAW(A)","IBW(A)","ICW(A)","IAX(A)","IBX(A)","ICX(A)","IY1(A)","IY2(A)","IY3(A)","VAV(kV)","VBV(kV)","VCV(kV)","VAZ(kV)","VBZ(kV)","VCZ(kV)","IOPA","IRTA","IOPB","IRTB","IOPC","IRTC","IAH2","IBH2","ICH2","IAH4","IBH4","ICH4","IAH5","IBH5","ICH5","ANA01","ANA02","ANA03","ANA04","ANA05","ANA06","ANA07","ANA08","ANA09","ANA10","ANA11","ANA12","ANA13","ANA14","ANA15","ANA16","ANA17","ANA18","ANA19","ANA20","TRIG","TRPXFMR TRIPS TRIPT TRIPU TRIPW TRIPX 87RA 87RB 87RC 87Q REFF1 REFF2 REFF3 REFR1 REFR2 REFR3 VPOLV VPOLZ LOPV LOPZ SF32P SR32P SF32Q SR32Q SF32G SR32G TF32P TR32P TF32Q TR32Q TF32G TR32G UF32P UR32P UF32Q UR32Q UF32G UR32G WF32P WR32P WF32Q WR32Q WF32G WR32G XF32P XR32P XF32Q XR32Q XF32G XR32G FBFS FBFT FBFU FBFW FBFX IN101 IN102 IN103 IN104 IN105 IN106 IN107 OUT101 OUT102 OUT103 OUT104 OUT105 OUT106 OUT107 OUT108 RMB1A RMB2A RMB3A RMB4A RMB5A RMB6A RMB7A RMB8A TMB1A TMB2A TMB3A TMB4A TMB5A TMB6A TMB7A TMB8A ROKA RBADA CBADA LBOKA ANOKA DOKA PSV01 PSV02 PSV03 PSV04 PSV05 PSV06 PSV07 PSV08 PLT01 PLT02 PLT03 PLT04 PLT05 PLT06 PLT07 PLT08 PCT01Q PCT02Q PCT03Q PCT04Q PCT05Q PCT06Q PCT07Q PCT08Q CCS CCT CCU CCW CCX OCS OCT OCU OCW OCX * *","20DA"
0,0,0,0,0,0,0,0,0,0,-1,0,1,1,1,0,0,0,0.0,0.0,0.0,0.0,0.0,0.0,0.00,0.00,0.00,0.00,0.00,0.00,0,0,0,0,0,0,0,0,0, , , , , , , , , , , , , , , , , , , , , ,"00000000000001400400000002040000","2078"
0,0,0,0,0,0,0,0,0,0,0,0,0,0,0,0,0,0,0.0,0.0,0.0,0.0,0.0,0.0,0.00,0.00,0.00,0.00,0.00,0.00,0,0,0,0,0,0,0,0,0, , , , , , , , , , , , , , , , , , , , , ,"00000000000001400400000002040000","2047"
0,0,0,0,0,0,0,0,0,0,0,1,-1,0,0,0,0,0,0.0,0.0,0.0,0.0,0.0,0.0,0.00,0.00,0.00,0.00,0.00,0.00,0,0,0,0,0,0,0,0,0, , , , , , , , , , , , , , , , , , , , , ,"00000000000001400400000002040000","2076"
0,0,0,0,0,0,0,0,0,0,1,0,0,0,-1,0,0,0,0.0,0.0,0.0,0.0,0.0,0.0,0.00,0.00,0.00,0.00,0.00,0.00,0,0,0,0,0,0,0,0,0, , , , , , , , , , , , , , , , , , , , , ,"00000000000001400400000002040000","2076"
0,0,0,0,0,0,0,0,0,0,0,0,1,0,-1,0,0,0,0.0,0.0,0.0,0.0,0.0,0.0,0.00,0.00,0.00,0.00,0.00,0.00,0,0,0,0,0,0,0,0,0, , , , , , , , , , , , , , , , , , , , , ,"00000000000001400400000002040000","2076"
0,0,0,0,0,0,0,0,0,0,0,0,-1,0,1,0,0,0,0.0,0.0,0.0,0.0,0.0,0.0,0.00,0.00,0.00,0.00,0.00,0.00,0,0,0,0,0,0,0,0,0, , , , , , , , , , , , , , , , , , , , , ,"00000000000001400400000002040000","2076"
0,0,0,0,0,0,0,0,0,0,0,-1,-1,-1,1,0,0,0,0.0,0.0,0.0,0.0,0.0,0.0,0.00,0.00,0.00,0.00,0.00,0.00,0,0,0,0,0,0,0,0,0, , , , , , , , , , , , , , , , , , , , , ,"00000000000001400400000002040000","20D2"
0,0,0,0,0,0,0,0,0,1,-2,0,1,0,-1,0,0,0,0.0,0.0,0.0,0.0,0.0,0.0,0.00,0.00,0.00,0.00,0.00,0.00,0,0,0,0,0,0,0,0,0, , , , , , , , , , , , , , , , , , , , , ,"00000000000001400400000002040000","20A6"
0,0,0,0,0,0,0,0,0,1,1,1,0,1,0,0,0,0,0.0,0.0,0.0,0.0,0.0,0.0,0.00,0.00,0.00,0.00,0.00,0.00,0,0,0,0,0,0,0,0,0, , , , , , , , , , , , , , , , , , , , , ,"00000000000001400400000002040000","204B"
0,0,0,0,0,0,0,0,0,-1,0,1,0,-1,1,0,0,0,0.0,0.0,0.0,0.0,0.0,0.0,0.00,0.00,0.00,0.00,0.00,0.00,0,0,0,0,0,0,0,0,0, , , , , , , , , , , , , , , , , , , , , ,"00000000000001400400000002040000","20A5"
0,0,0,0,0,0,0,0,0,-1,-1,1,1,0,0,0,0,0,0.0,0.0,0.0,0.0,0.0,0.0,0.00,0.00,0.00,0.00,0.00,0.00,0,0,0,0,0,0,0,0,0, , , , , , , , , , , , , , , , , , , , , ,"00000000000001400400000002040000","20A5"
0,0,0,0,0,0,0,0,0,1,1,-1,0,1,0,0,0,0,0.0,0.0,0.0,0.0,0.0,0.0,0.00,0.00,0.00,0.00,0.00,0.00,0,0,0,0,0,0,0,0,0, , , , , , , , , , , , , , , , , , , , , ,"00000000000001400400000002040000","2078"
0,0,0,0,0,0,0,0,0,-1,1,0,0,0,0,0,0,0,0.0,0.0,0.0,0.0,0.0,0.0,0.00,0.00,0.00,0.00,0.00,0.00,0,0,0,0,0,0,0,0,0, , , , , , , , , , , , , , , , , , , , , ,"00000000000001400400000002040000","2076"
0,0,0,0,0,0,0,0,0,0,0,1,1,0,0,0,0,0,0.0,0.0,0.0,0.0,0.0,0.0,0.00,0.00,0.00,0.00,0.00,0.00,0,0,0,0,0,0,0,0,0, , , , , , , , , , , , , , , , , , , , , ,"00000000000001400400000002040000","2049"
0,0,0,0,0,0,0,0,0,0,1,0,0,1,0,0,0,0,0.0,0.0,0.0,0.0,0.0,0.0,0.00,0.00,0.00,0.00,0.00,0.00,0,0,0,0,0,0,0,0,0, , , , , , , , , , , , , , , , , , , , , ,"00000000000001400400000002040000","2049"
0,0,0,0,0,0,0,0,0,0,0,-1,-1,0,0,0,0,0,0.0,0.0,0.0,0.0,0.0,0.0,0.00,0.00,0.00,0.00,0.00,0.00,0,0,0,0,0,0,0,0,0, , , , , , , , , , , , , , , , , , , , , ,"00000000000001400400000002040000","20A3"
0,0,0,0,0,0,0,0,0,0,0,-1,1,-1,0,0,0,0,0.0,0.0,0.0,0.0,0.0,0.0,0.00,0.00,0.00,0.00,0.00,0.00,0,0,0,0,0,0,0,0,0, , , , , , , , , , , , , , , , , , , , , ,"00000000000000400400000002040000","20A3"
0,0,0,0,0,0,0,0,0,-1,0,1,1,0,0,0,0,0,0.0,0.0,0.0,0.0,0.0,0.0,0.00,0.00,0.00,0.00,0.00,0.00,0,0,0,0,0,0,0,0,0, , , , , , , , , , , , , , , , , , , , , ,"00000000000000400400000002040000","2076"
0,0,0,0,0,0,0,0,0,1,-1,1,-1,1,-1,0,0,0,0.0,0.0,0.0,0.0,0.0,0.0,0.00,0.00,0.00,0.00,0.00,0.00,0,0,0,0,0,0,0,0,0, , , , , , , , , , , , , , , , , , , , , ,"00000000000000400400000002040000","20D3"
0,0,0,0,0,0,0,0,0,0,1,0,0,-1,0,0,0,0,0.0,0.0,0.0,0.0,0.0,0.0,0.00,0.00,0.00,0.00,0.00,0.00,0,0,0,0,0,0,0,0,0, , , , , , , , , , , , , , , , , , , , , ,"00000000000000400400000002040000","2075"
0,0,0,0,0,0,0,0,0,-1,0,0,0,0,0,0,0,0,0.0,0.0,0.0,0.0,0.0,0.0,0.00,0.00,0.00,0.00,0.00,0.00,0,0,0,0,0,0,0,0,0, , , , , , , , , , , , , , , , , , , , , ,"00000000000000400400000002040000","2074"
-16,69,-16,0,0,0,0,0,0,1,-1,0,0,0,0,0,0,0,28.3,-24.4,4.4,0.0,0.0,0.0,0.06,0.06,0.13,0.13,0.06,0.06,84,58,22,80,80,81,20,44,69, , , , , , , , , , , , , , , , , , , , , ,"00008000000000400400000002040000","244F"
-207,194,4,0,0,0,0,0,0,0,1,0,0,0,1,0,0,0,-1.5,36.4,-50.5,0.0,0.0,0.0,0.46,0.46,0.45,0.45,0.06,0.06,36,51,100,36,25,80,8,23,78, , , , , , , , , , , , , , , , , , , , , ,"00008000000000C00400000002040000","2464"
19,-257,104,0,0,0,0,0,1,-1,1,0,-1,1,0,0,0,0,-72.1,60.3,21.6,0.0,0.0,0.0,0.47,0.47,0.64,0.64,0.33,0.33,65,49,94,11,2,13,7,14,10, , , , , , , , , , , , , , , , , , , , , ,"00008000000000C00400000002040000","248F"
422,-267,-67,0,0,0,0,0,0,1,-1,1,1,-1,0,0,0,0,-12.7,-83.8,110.0,0.0,0.0,0.0,0.88,0.88,0.81,0.81,0.39,0.39,29,33,74,6,2,9,2,5,5, , , , , , , , , , , , , , , , , , , , ,">","00008000000000C00400000002040000","24D8"
-15,242,-104,0,0,0,0,0,0,0,-1,0,0,0,-1,0,0,0,108.4,-67.7,-49.9,0.0,0.0,0.0,0.88,0.88,0.79,0.79,0.38,0.39,30,33,75,5,2,11,2,3,4, , , , , , , , , , , , , , , , , , , , , ,"00008000000000C00400000002040000","24A5"
-394,246,61,0,0,0,0,0,0,-1,1,0,-1,1,0,0,0,0,14.4,92.1,-119.9,0.0,0.0,0.0,0.82,0.82,0.75,0.75,0.38,0.38,31,35,76,5,1,9,3,5,4, , , , , , , , , , , , , , , , , , , , , ,"00008000000000C00400000002040000","2417"
10,-217,96,0,0,0,0,0,0,0,0,0,1,-1,1,0,0,0,-109.0,68.1,49.5,0.0,0.0,0.0,0.82,0.82,0.73,0.73,0.36,0.36,30,33,76,6,3,7,4,6,6, , , , , , , , , , , , , , , , , , , , , ,"00008000000000C00400000002040000","23AC"
366,-231,-54,0,0,0,0,0,0,1,0,0,0,0,0,0,0,0,-14.6,-92.8,119.2,0.0,0.0,0.0,0.76,0.76,0.70,0.70,0.34,0.34,32,36,79,6,3,8,5,9,6, , , , , , , , , , , , , , , , , , , , , ,"00008000000000C00400000002040000","2414"
-9,207,-93,0,0,0,0,0,-1,-1,0,-1,0,0,-1,0,0,0,110.4,-69.2,-49.6,0.0,0.0,0.0,0.76,0.76,0.69,0.69,0.34,0.34,34,36,81,6,3,10,6,9,5, , , , , , , , , , , , , , , , , , , , ,"*","00008000000000C00400000002040000","24EC"
-346,215,53,0,0,0,0,0,0,0,-1,1,0,0,0,0,0,0,14.8,93.2,-119.2,0.0,0.0,0.0,0.72,0.72,0.66,0.66,0.33,0.33,34,38,80,5,2,8,6,9,5, , , , , , , , , , , , , , , , , , , , , ,"00008000000000C00400000002040000","23DE"
9,-192,86,0,0,0,0,0,1,0,1,0,-1,0,0,0,0,0,-111.8,68.8,50.0,0.0,0.0,0.0,0.71,0.71,0.64,0.64,0.31,0.31,33,36,81,6,4,7,7,9,5, , , , , , , , , , , , , , , , , , , , , ,"00008000000000C00400000002040000","237A"
326,-205,-49,0,0,0,0,0,0,0,-1,-1,1,0,0,0,0,0,-14.4,-94.0,119.4,0.0,0.0,0.0,0.67,0.67,0.62,0.62,0.31,0.31,35,38,83,7,4,8,9,12,5, , , , , , , , , , , , , , , , , , , , , ,"00008000000000C00400000002040000","2496"
-7,186,-84,0,0,0,0,0,-1,0,0,0,0,1,0,0,0,0,112.5,-69.5,-50.7,0.0,0.0,0.0,0.67,0.67,0.61,0.61,0.30,0.30,36,39,84,7,4,9,8,12,4, , , , , , , , , , , , , , , , , , , , , ,"00008000000000C00400000002040000","240D"
-310,191,48,0,0,0,0,0,0,0,1,0,0,-1,1,0,0,0,14.7,94.6,-119.6,0.0,0.0,0.0,0.64,0.64,0.58,0.59,0.30,0.30,36,40,83,6,3,7,8,11,4, , , , , , , , , , , , , , , , , , , , , ,"00008000000000C00400000002040000","240D"
8,-175,78,0,0,0,0,0,1,0,0,0,0,0,0,0,0,0,-113.8,69.1,51.0,0.0,0.0,0.0,0.64,0.64,0.57,0.57,0.29,0.29,35,38,84,6,4,7,9,12,5, , , , , , , , , , , , , , , , , , , , , ,"00008000000000C00400000002040000","2392"
294,-183,-44,0,0,0,0,0,0,1,0,1,-1,1,0,0,0,0,-14.2,-95.5,119.6,0.0,0.0,0.0,0.61,0.61,0.56,0.56,0.28,0.28,37,40,86,7,4,8,10,14,5, , , , , , , , , , , , , , , , , , , , , ,"00008000000000C00400000002040000","24A2"
-7,169,-77,0,0,0,0,0,-1,-1,0,0,0,-1,0,0,0,0,113.9,-69.6,-51.3,0.0,0.0,0.0,0.61,0.61,0.55,0.55,0.28,0.28,37,40,87,7,5,9,10,13,3, , , , , , , , , , , , , , , , , , , , , ,"00008000000000C00400000002040000","249C"
-281,172,44,0,0,0,0,0,0,-1,0,-1,0,0,0,0,0,0,14.3,96.0,-119.5,0.0,0.0,0.0,0.58,0.58,0.53,0.53,0.28,0.28,37,42,85,6,4,7,10,13,3, , , , , , , , , , , , , , , , , , , , , ,"00008000000000C00400000002040000","246B"
8,-159,72,0,0,0,0,0,0,1,0,0,0,1,0,0,0,0,-115.5,69.4,51.6,0.0,0.0,0.0,0.58,0.58,0.52,0.52,0.26,0.26,36,40,86,6,5,7,10,13,4, , , , , , , , , , , , , , , , , , , , , ,"00008000000000C00400000002040000","23B2"
269,-166,-42,0,0,0,0,0,0,1,1,0,0,0,2,0,0,0,-13.8,-96.8,119.5,0.0,0.0,0.0,0.55,0.55,0.51,0.51,0.26,0.26,38,42,88,6,5,8,11,14,4, , , , , , , , , , , , , , , , , , , , , ,"00008000000000C00400000002040000","247B"
-7,156,-71,0,0,0,0,0,-1,0,0,0,0,0,-1,0,0,0,115.3,-69.6,-52.1,0.0,0.0,0.0,0.55,0.55,0.50,0.50,0.25,0.25,39,42,89,6,5,9,11,14,4, , , , , , , , , , , , , , , , , , , , , ,"00008000000000C00400000002040000","245D"
-259,157,41,0,0,0,0,0,0,-1,-1,-1,1,0,-1,0,0,0,14.0,97.2,-119.6,0.0,0.0,0.0,0.53,0.53,0.49,0.49,0.25,0.25,39,43,88,5,5,8,11,14,4, , , , , , , , , , , , , , , , , , , , , ,"00008000000000C00400000002040000","24D2"
9,-148,67,0,0,0,0,0,1,-1,0,1,0,-1,1,0,0,0,-116.7,69.4,52.3,0.0,0.0,0.0,0.53,0.53,0.48,0.48,0.24,0.24,37,41,88,5,5,8,11,14,4, , , , , , , , , , , , , , , , , , , , , ,"00008000000000C00400000002040000","2415"
248,-153,-38,0,0,0,0,0,0,1,1,1,0,0,-1,0,0,0,-13.8,-97.6,119.7,0.0,0.0,0.0,0.51,0.51,0.47,0.47,0.24,0.24,39,43,90,5,5,8,12,15,4, , , , , , , , , , , , , , , , , , , , , ,"00008000000000C00400000002040000","24A1"
-8,144,-66,0,0,0,0,0,-1,1,0,-1,0,0,1,0,0,0,116.4,-70.1,-52.3,0.0,0.0,0.0,0.51,0.51,0.46,0.46,0.23,0.23,40,43,90,5,6,10,11,15,3, , , , , , , , , , , , , , , , , , , , , ,"00008000000000C00400000002040000","246F"
-239,145,38,0,0,0,0,0,0,-1,-1,0,0,0,0,0,0,0,14.1,97.9,-119.7,0.0,0.0,0.0,0.49,0.49,0.45,0.45,0.23,0.23,40,45,89,4,6,8,11,14,3, , , , , , , , , , , , , , , , , , , , , ,"00008000000000C00400000002040000","2477"
7,-137,63,0,0,0,0,0,1,0,1,-1,0,0,0,0,0,0,-117.5,70.1,52.2,0.0,0.0,0.0,0.49,0.49,0.44,0.44,0.23,0.23,39,43,90,4,6,9,11,14,4, , , , , , , , , , , , , , , , , , , , , ,"00008000000000C00400000002040000","23CF"
230,-142,-36,0,0,0,0,0,0,2,0,0,-1,0,0,0,0,0,-14.2,-98.1,119.9,0.0,0.0,0.0,0.48,0.48,0.44,0.44,0.22,0.22,40,44,92,5,6,9,12,15,4, , , , , , , , , , , , , , , , , , , , , ,"00008000000000C00400000002040000","248B"
-7,134,-62,0,0,0,0,0,-1,0,0,1,-1,0,-1,0,0,0,117.2,-70.6,-52.1,0.0,0.0,0.0,0.48,0.48,0.43,0.43,0.22,0.22,40,44,92,5,7,10,12,15,3, , , , , , , , , , , , , , , , , , , , , ,"00008000000000C00400000002040000","24A1"
-222,136,35,0,0,0,0,0,0,-1,0,0,1,-1,0,0,0,0,14.3,98.4,-119.8,0.0,0.0,0.0,0.46,0.46,0.42,0.42,0.22,0.22,40,46,92,4,7,9,11,14,3, , , , , , , , , , , , , , , , , , , , , ,"00008000000000C00400000002040000","245B"
7,-129,59,0,0,0,0,0,1,0,0,0,1,0,1,0,0,0,-118.2,70.7,52.0,0.0,0.0,0.0,0.46,0.46,0.41,0.41,0.21,0.21,39,44,92,4,7,10,11,14,4, , , , , , , , , , , , , , , , , , , , , ,"00008000000000C00400000002040000","23C6"
215,-134,-33,0,0,0,0,0,0,0,1,-1,0,1,0,0,0,0,-14.3,-98.5,119.9,0.0,0.0,0.0,0.44,0.44,0.41,0.41,0.21,0.21,41,45,93,4,7,10,11,14,4, , , , , , , , , , , , , , , , , , , , , ,"00008000000000C00400000002040000","24AA"
-6,125,-58,0,0,0,0,0,-1,-1,0,-1,0,0,0,0,0,0,117.9,-71.2,-51.6,0.0,0.0,0.0,0.44,0.44,0.40,0.40,0.21,0.21,41,46,94,4,8,11,11,14,4, , , , , , , , , , , , , , , , , , , , , ,"00008000000000C00400000002040000","24A1"
-209,129,33,0,0,0,0,0,0,-1,0,1,0,0,1,0,0,0,14.7,98.5,-120.0,0.0,0.0,0.0,0.43,0.43,0.39,0.39,0.20,0.20,42,47,94,3,7,10,11,14,4, , , , , , , , , , , , , , , , , , , , , ,"00008000000000C00400000002040000","2457"
6,-121,56,0,0,0,0,0,1,1,0,1,0,0,0,0,0,0,-118.6,71.1,51.7,0.0,0.0,0.0,0.43,0.43,0.39,0.39,0.20,0.20,40,45,93,3,7,12,11,14,5, , , , , , , , , , , , , , , , , , , , , ,"00008000000000C00400000002040000","23C1"
202,-127,-31,0,0,0,0,0,0,1,0,0,0,0,-1,0,0,0,-15.0,-98.4,120.2,0.0,0.0,0.0,0.42,0.42,0.38,0.38,0.20,0.20,41,46,95,3,7,12,11,14,5, , , , , , , , , , , , , , , , , , , , , ,"00008000000000C00400000002040000","249E"
-5,118,-55,0,0,0,0,0,0,-1,-1,-1,-1,0,0,0,0,0,118.1,-71.5,-51.1,0.0,0.0,0.0,0.42,0.42,0.38,0.38,0.19,0.19,42,46,95,3,8,13,11,14,4, , , , , , , , , , , , , , , , , , , , , ,"00008000000000C00400000002040000","24DF"
-196,122,31,0,0,0,0,0,0,0,1,0,1,0,1,0,0,0,15.0,98.8,-120.1,0.0,0.0,0.0,0.41,0.41,0.37,0.37,0.19,0.19,42,48,95,2,8,12,11,13,5, , , , , , , , , , , , , , , , , , , , , ,"00008000000000C00400000002040000","2430"
5,-114,53,0,0,0,0,0,0,0,0,1,1,0,-1,0,0,0,-119.3,71.8,51.4,0.0,0.0,0.0,0.41,0.41,0.37,0.37,0.19,0.19,41,46,95,2,8,12,10,13,5, , , , , , , , , , , , , , , , , , , , , ,"00008000000000C00400000002040000","23F8"
191,-120,-29,0,0,0,0,0,0,1,-1,-1,-1,-1,0,0,0,0,-15.0,-99.0,120.4,0.0,0.0,0.0,0.40,0.40,0.36,0.36,0.18,0.18,42,47,97,2,8,12,11,13,5, , , , , , , , , , , , , , , , , , , , , ,"00008000000000C00400000002040000","2537"
-5,112,-52,0,0,0,0,0,-1,0,1,1,-1,-1,2,0,0,0,119.3,-72.2,-51.3,0.0,0.0,0.0,0.40,0.40,0.36,0.36,0.18,0.18,43,48,98,2,9,14,10,13,5, , , , , , , , , , , , , , , , , , , , , ,"00008000000000C00400000002040000","24AB"
-186,116,29,0,0,0,0,0,0,0,0,0,0,1,0,0,0,0,15.3,99.2,-120.6,0.0,0.0,0.0,0.39,0.39,0.35,0.35,0.18,0.18,43,49,97,2,9,13,10,12,4, , , , , , , , , , , , , , , , , , , , , ,"00008000000000C00400000002040000","2445"
5,-109,50,0,0,0,0,0,1,0,0,-1,0,1,0,0,0,0,-119.8,72.3,51.1,0.0,0.0,0.0,0.39,0.39,0.35,0.35,0.18,0.18,42,47,97,1,8,14,10,12,5, , , , , , , , , , , , , , , , , , , , , ,"00008000000000C00400000002040000","2403"
181,-115,-27,0,0,0,0,0,0,1,0,1,-1,-1,1,0,0,0,-15.4,-99.4,120.8,0.0,0.0,0.0,0.38,0.38,0.35,0.35,0.17,0.18,43,48,98,1,8,14,10,12,6, , , , , , , , , , , , , , , , , , , , , ,"00008000000000C00400000002040000","24F8"
-5,107,-50,0,0,0,0,0,0,0,0,0,0,-1,-1,0,0,0,119.5,-72.5,-50.9,0.0,0.0,0.0,0.38,0.38,0.35,0.35,0.17,0.17,44,48,98,1,9,15,10,12,5, , , , , , , , , , , , , , , , , , , , , ,"00008000000000C00400000002040000","248F"
-177,111,27,0,0,0,0,0,0,-1,1,-1,0,1,0,0,0,0,15.5,99.3,-120.5,0.0,0.0,0.0,0.37,0.37,0.34,0.34,0.17,0.17,43,49,98,2,9,15,9,11,5, , , , , , , , , , , , , , , , , , , , , ,"00008000000000C00400000002040000","2470"
4,-103,49,0,0,0,0,0,1,1,0,0,0,1,0,0,0,0,-120.1,72.7,50.9,0.0,0.0,0.0,0.37,0.37,0.34,0.34,0.17,0.17,42,48,98,1,9,15,9,11,6, , , , , , , , , , , , , , , , , , , , , ,"00008000000000C00400000002040000","23A7"
172,-110,-26,0,-1,0,0,0,0,0,0,0,0,-1,0,0,0,0,-15.6,-99.4,120.7,0.0,0.0,0.0,0.36,0.36,0.33,0.33,0.17,0.17,43,49,99,1,9,16,9,12,6, , , , , , , , , , , , , , , , , , , , , ,"00008000000000C00400000002040000","24C4"
-4,102,-49,0,0,0,0,0,0,0,0,-1,-1,0,1,0,0,0,119.8,-72.8,-50.7,0.0,0.0,0.0,0.36,0.36,0.33,0.33,0.17,0.17,44,49,99,2,10,16,9,12,6, , , , , , , , , , , , , , , , , , , , , ,"00008000000000C00400000002040000","2493"
-169,107,26,0,0,0,0,0,0,-1,-1,0,1,1,0,0,0,0,15.8,99.6,-120.9,0.0,0.0,0.0,0.35,0.35,0.32,0.32,0.17,0.17,43,50,98,3,11,15,9,11,6, , , , , , , , , , , , , , , , , , , , , ,"00008000000000C00400000002040000","249A"
4,-100,47,0,0,0,0,0,1,0,0,1,0,0,-1,0,0,0,-120.4,72.8,50.9,0.0,0.0,0.0,0.35,0.35,0.32,0.32,0.16,0.16,43,48,98,2,10,17,9,11,7, , , , , , , , , , , , , , , , , , , , , ,"00008000000000C00400000002040000","23F6"
166,-106,-25,0,0,0,0,0,0,1,-1,1,0,0,1,0,0,0,-15.7,-99.7,121.0,0.0,0.0,0.0,0.34,0.34,0.32,0.32,0.16,0.16,44,49,99,2,10,17,8,11,7, , , , , , , , , , , , , , , , , , , , , ,"00008000000000C00400000002040000","24C0"
-4,98,-47,0,0,0,0,0,-1,0,0,0,0,0,0,0,0,0,120.4,-73.1,-50.9,0.0,0.0,0.0,0.34,0.34,0.32,0.32,0.16,0.16,44,49,99,2,11,18,8,11,7, , , , , , , , , , , , , , , , , , , , , ,"00008000000000C00400000002040000","242A"
-163,103,25,0,0,0,0,0,0,-1,0,0,1,1,-1,0,0,0,15.8,99.8,-120.9,0.0,0.0,0.0,0.34,0.34,0.31,0.31,0.16,0.16,44,50,98,3,11,17,8,10,7, , , , , , , , , , , , , , , , , , , , , ,"00008000000000C00400000002040000","248D"
4,-95,45,0,0,0,0,0,0,0,1,0,0,0,1,0,0,0,-120.8,73.1,50.9,0.0,0.0,0.0,0.34,0.34,0.31,0.31,0.16,0.16,43,49,99,2,11,18,8,10,8, , , , , , , , , , , , , , , , , , , , , ,"00008000000000C00400000002040000","23A0"
159,-102,-24,0,0,0,0,0,0,0,0,0,-1,-2,0,0,0,0,-15.8,-99.7,120.9,0.0,0.0,0.0,0.33,0.33,0.31,0.31,0.16,0.16,44,49,100,2,11,19,8,10,8, , , , , , , , , , , , , , , , , , , , , ,"00008000000000C00400000002040000","2510"
-4,94,-45,0,0,0,0,0,0,1,-1,1,0,1,0,0,0,0,120.5,-73.3,-50.7,0.0,0.0,0.0,0.33,0.33,0.30,0.31,0.15,0.15,44,50,100,2,11,19,8,10,8, , , , , , , , , , , , , , , , , , , , , ,"00008000000000C00400000002040000","2439"
-156,99,24,0,0,0,0,0,0,-1,0,-1,1,0,0,0,0,0,15.9,99.7,-120.8,0.0,0.0,0.0,0.32,0.32,0.30,0.30,0.15,0.15,44,50,100,3,12,19,8,9,8, , , , , , , , , , , , , , , , , , , , , ,"00008000000000C00400000002040000","245E"
